Freq.	V(out)
1.00000000000000e+001	(-2.70353347029362e+001dB,-1.09142408737085e+002°)
1.00695555005672e+001	(-2.68553338389940e+001dB,-1.09770041634870e+002°)
1.01395947979003e+001	(-2.66758521712102e+001dB,-1.10398721620430e+002°)
1.02101212570719e+001	(-2.64968897480704e+001dB,-1.11028431710226e+002°)
1.02811382665607e+001	(-2.63184465493907e+001dB,-1.11659155111429e+002°)
1.03526492384138e+001	(-2.61405224870153e+001dB,-1.12290875236441e+002°)
1.04246576084112e+001	(-2.59631174055850e+001dB,-1.12923575717338e+002°)
1.04971668362307e+001	(-2.57862310833765e+001dB,-1.13557240420235e+002°)
1.05701804056138e+001	(-2.56098632332116e+001dB,-1.14191853459547e+002°)
1.06437018245336e+001	(-2.54340135034370e+001dB,-1.14827399212132e+002°)
1.07177346253629e+001	(-2.52586814789740e+001dB,-1.15463862331313e+002°)
1.07922823650443e+001	(-2.50838666824366e+001dB,-1.16101227760750e+002°)
1.08673486252606e+001	(-2.49095685753186e+001dB,-1.16739480748150e+002°)
1.09429370126074e+001	(-2.47357865592490e+001dB,-1.17378606858814e+002°)
1.10190511587661e+001	(-2.45625199773141e+001dB,-1.18018591988992e+002°)
1.10956947206785e+001	(-2.43897681154463e+001dB,-1.18659422379035e+002°)
1.11728713807222e+001	(-2.42175302038788e+001dB,-1.19301084626341e+002°)
1.12505848468881e+001	(-2.40458054186646e+001dB,-1.19943565698065e+002°)
1.13288388529580e+001	(-2.38745928832597e+001dB,-1.20586852943604e+002°)
1.14076371586842e+001	(-2.37038916701684e+001dB,-1.21230934106813e+002°)
1.14869835499704e+001	(-2.35337008026515e+001dB,-1.21875797337969e+002°)
1.15668818390529e+001	(-2.33640192564939e+001dB,-1.22521431205459e+002°)
1.16473358646846e+001	(-2.31948459618322e+001dB,-1.23167824707173e+002°)
1.17283494923188e+001	(-2.30261798050404e+001dB,-1.23814967281606e+002°)
1.18099266142953e+001	(-2.28580196306731e+001dB,-1.24462848818652e+002°)
1.18920711500272e+001	(-2.26903642434632e+001dB,-1.25111459670069e+002°)
1.19747870461893e+001	(-2.25232124103758e+001dB,-1.25760790659629e+002°)
1.20580782769076e+001	(-2.23565628627135e+001dB,-1.26410833092915e+002°)
1.21419488439505e+001	(-2.21904142982746e+001dB,-1.27061578766779e+002°)
1.22264027769207e+001	(-2.20247653835615e+001dB,-1.27713019978442e+002°)
1.23114441334492e+001	(-2.18596147560376e+001dB,-1.28365149534220e+002°)
1.23970769993899e+001	(-2.16949610264327e+001dB,-1.29017960757886e+002°)
1.24833054890161e+001	(-2.15308027810935e+001dB,-1.29671447498646e+002°)
1.25701337452183e+001	(-2.13671385843802e+001dB,-1.30325604138723e+002°)
1.26575659397028e+001	(-2.12039669811053e+001dB,-1.30980425600547e+002°)
1.27456062731927e+001	(-2.10412864990155e+001dB,-1.31635907353539e+002°)
1.28342589756291e+001	(-2.08790956513129e+001dB,-1.32292045420489e+002°)
1.29235283063750e+001	(-2.07173929392168e+001dB,-1.32948836383506e+002°)
1.30134185544194e+001	(-2.05561768545618e+001dB,-1.33606277389563e+002°)
1.31039340385837e+001	(-2.03954458824339e+001dB,-1.34264366155591e+002°)
1.31950791077290e+001	(-2.02351985038396e+001dB,-1.34923100973156e+002°)
1.32868581409652e+001	(-2.00754331984107e+001dB,-1.35582480712685e+002°)
1.33792755478612e+001	(-1.99161484471398e+001dB,-1.36242504827254e+002°)
1.34723357686569e+001	(-1.97573427351475e+001dB,-1.36903173355916e+002°)
1.35660432744768e+001	(-1.95990145544792e+001dB,-1.37564486926582e+002°)
1.36604025675440e+001	(-1.94411624069298e+001dB,-1.38226446758435e+002°)
1.37554181813975e+001	(-1.92837848068959e+001dB,-1.38889054663880e+002°)
1.38510946811093e+001	(-1.91268802842534e+001dB,-1.39552313050028e+002°)
1.39474366635041e+001	(-1.89704473872598e+001dB,-1.40216224919698e+002°)
1.40444487573800e+001	(-1.88144846854801e+001dB,-1.40880793871939e+002°)
1.41421356237310e+001	(-1.86589907727338e+001dB,-1.41546024102078e+002°)
1.42405019559708e+001	(-1.85039642700640e+001dB,-1.42211920401264e+002°)
1.43395524801583e+001	(-1.83494038287257e+001dB,-1.42878488155530e+002°)
1.44392919552250e+001	(-1.81953081331921e+001dB,-1.43545733344348e+002°)
1.45397251732032e+001	(-1.80416759041790e+001dB,-1.44213662538684e+002°)
1.46408569594563e+001	(-1.78885059016853e+001dB,-1.44882282898542e+002°)
1.47426921729111e+001	(-1.77357969280487e+001dB,-1.45551602169996e+002°)
1.48452357062905e+001	(-1.75835478310149e+001dB,-1.46221628681698e+002°)
1.49484924863494e+001	(-1.74317575068199e+001dB,-1.46892371340868e+002°)
1.50524674741107e+001	(-1.72804249032844e+001dB,-1.47563839628738e+002°)
1.51571656651040e+001	(-1.71295490229185e+001dB,-1.48236043595480e+002°)
1.52625920896057e+001	(-1.69791289260354e+001dB,-1.48908993854566e+002°)
1.53687518128802e+001	(-1.68291637338740e+001dB,-1.49582701576597e+002°)
1.54756499354240e+001	(-1.66796526317286e+001dB,-1.50257178482565e+002°)
1.55832915932101e+001	(-1.65305948720840e+001dB,-1.50932436836548e+002°)
1.56916819579351e+001	(-1.63819897777554e+001dB,-1.51608489437841e+002°)
1.58008262372676e+001	(-1.62338367450325e+001dB,-1.52285349612496e+002°)
1.59107296750984e+001	(-1.60861352468242e+001dB,-1.52963031204283e+002°)
1.60213975517925e+001	(-1.59388848358055e+001dB,-1.53641548565044e+002°)
1.61328351844426e+001	(-1.57920851475628e+001dB,-1.54320916544450e+002°)
1.62450479271248e+001	(-1.56457359037377e+001dB,-1.55001150479133e+002°)
1.63580411711557e+001	(-1.54998369151665e+001dB,-1.55682266181197e+002°)
1.64718203453515e+001	(-1.53543880850149e+001dB,-1.56364279926090e+002°)
1.65863909162889e+001	(-1.52093894119058e+001dB,-1.57047208439834e+002°)
1.67017583885675e+001	(-1.50648409930377e+001dB,-1.57731068885593e+002°)
1.68179283050744e+001	(-1.49207430272937e+001dB,-1.58415878849570e+002°)
1.69349062472506e+001	(-1.47770958183364e+001dB,-1.59101656326230e+002°)
1.70526978353592e+001	(-1.46338997776896e+001dB,-1.59788419702826e+002°)
1.71713087287552e+001	(-1.44911554278018e+001dB,-1.60476187743219e+002°)
1.72907446261574e+001	(-1.43488634050915e+001dB,-1.61164979570986e+002°)
1.74110112659226e+001	(-1.42070244629699e+001dB,-1.61854814651791e+002°)
1.75321144263208e+001	(-1.40656394748399e+001dB,-1.62545712775019e+002°)
1.76540599258132e+001	(-1.39247094370675e+001dB,-1.63237694034646e+002°)
1.77768536233315e+001	(-1.37842354719228e+001dB,-1.63930778809352e+002°)
1.79005014185596e+001	(-1.36442188304886e+001dB,-1.64624987741834e+002°)
1.80250092522167e+001	(-1.35046608955313e+001dB,-1.65320341717336e+002°)
1.81503831063433e+001	(-1.33655631843320e+001dB,-1.66016861841364e+002°)
1.82766290045881e+001	(-1.32269273514743e+001dB,-1.66714569416576e+002°)
1.84037530124976e+001	(-1.30887551915831e+001dB,-1.67413485918839e+002°)
1.85317612378075e+001	(-1.29510486420124e+001dB,-1.68113632972430e+002°)
1.86606598307363e+001	(-1.28138097854758e+001dB,-1.68815032324387e+002°)
1.87904549842804e+001	(-1.26770408526168e+001dB,-1.69517705817968e+002°)
1.89211529345120e+001	(-1.25407442245122e+001dB,-1.70221675365240e+002°)
1.90527599608789e+001	(-1.24049224351051e+001dB,-1.70926962918762e+002°)
1.91852823865054e+001	(-1.22695781735615e+001dB,-1.71633590442361e+002°)
1.93187265784970e+001	(-1.21347142865436e+001dB,-1.72341579880990e+002°)
1.94530989482458e+001	(-1.20003337803964e+001dB,-1.73050953129662e+002°)
1.95884059517387e+001	(-1.18664398232395e+001dB,-1.73761732001449e+002°)
1.97246540898673e+001	(-1.17330357469572e+001dB,-1.74473938194536e+002°)
1.98618499087409e+001	(-1.16001250490825e+001dB,-1.75187593258337e+002°)
2.00000000000001e+001	(-1.14677113945654e+001dB,-1.75902718558655e+002°)
2.01391110011345e+001	(-1.13357986174198e+001dB,-1.76619335241892e+002°)
2.02791895958007e+001	(-1.12043907222400e+001dB,-1.77337464198312e+002°)
2.04202425141440e+001	(-1.10734918855811e+001dB,-1.78057126024342e+002°)
2.05622765331215e+001	(-1.09431064571921e+001dB,-1.78778340983944e+002°)
2.07052984768277e+001	(-1.08132389610959e+001dB,-1.79501128969029e+002°)
2.08493152168226e+001	(-1.06838940965062e+001dB,1.79774490541044e+002°)
2.09943336724615e+001	(-1.05550767385727e+001dB,1.79048498520905e+002°)
2.11403608112278e+001	(-1.04267919389448e+001dB,1.78320876441502e+002°)
2.12874036490674e+001	(-1.02990449261453e+001dB,1.77591606313327e+002°)
2.14354692507260e+001	(-1.01718411057441e+001dB,1.76860670730505e+002°)
2.15845647300887e+001	(-1.00451860603212e+001dB,1.76128052915732e+002°)
2.17346972505213e+001	(-9.91908554921075e+000dB,1.75393736766026e+002°)
2.18858740252150e+001	(-9.79354550801395e+000dB,1.74657706899259e+002°)
2.20381023175324e+001	(-9.66857204787219e+000dB,1.73919948701448e+002°)
2.21913894413571e+001	(-9.54417145448916e+000dB,1.73180448374742e+002°)
2.23457427614446e+001	(-9.42035018689162e+000dB,1.72439192986086e+002°)
2.25011696937764e+001	(-9.29711487591833e+000dB,1.71696170516493e+002°)
2.26576777059162e+001	(-9.17447232242707e+000dB,1.70951369910879e+002°)
2.28152743173687e+001	(-9.05242949520859e+000dB,1.70204781128402e+002°)
2.29739670999409e+001	(-8.93099352859815e+000dB,1.69456395193239e+002°)
2.31337636781060e+001	(-8.81017171977329e+000dB,1.68706204245736e+002°)
2.32946717293693e+001	(-8.68997152572916e+000dB,1.67954201593846e+002°)
2.34566989846378e+001	(-8.57040055992055e+000dB,1.67200381764792e+002°)
2.36198532285908e+001	(-8.45146658856197e+000dB,1.66444740556846e+002°)
2.37841423000546e+001	(-8.33317752657631e+000dB,1.65687275091158e+002°)
2.39495740923788e+001	(-8.21554143318385e+000dB,1.64927983863519e+002°)
2.41161565538154e+001	(-8.09856650712304e+000dB,1.64166866795962e+002°)
2.42838976879012e+001	(-7.98226108149595e+000dB,1.63403925288092e+002°)
2.44528055538416e+001	(-7.86663361823130e+000dB,1.62639162268028e+002°)
2.46228882668986e+001	(-7.75169270215882e+000dB,1.61872582242847e+002°)
2.47941539987800e+001	(-7.63744703468977e+000dB,1.61104191348385e+002°)
2.49666109780325e+001	(-7.52390542709877e+000dB,1.60333997398284e+002°)
2.51402674904368e+001	(-7.41107679340389e+000dB,1.59562009932138e+002°)
2.53151318794059e+001	(-7.29897014284165e+000dB,1.58788240262602e+002°)
2.54912125463855e+001	(-7.18759457193633e+000dB,1.58012701521308e+002°)
2.56685179512583e+001	(-7.07695925616259e+000dB,1.57235408703456e+002°)
2.58470566127501e+001	(-6.96707344120294e+000dB,1.56456378710912e+002°)
2.60268371088389e+001	(-6.85794643380199e+000dB,1.55675630393653e+002°)
2.62078680771675e+001	(-6.74958759222105e+000dB,1.54893184589418e+002°)
2.63901582154582e+001	(-6.64200631629915e+000dB,1.54109064161374e+002°)
2.65737162819305e+001	(-6.53521203712576e+000dB,1.53323294033660e+002°)
2.67585510957225e+001	(-6.42921420633491e+000dB,1.52535901224620e+002°)
2.69446715373141e+001	(-6.32402228502980e+000dB,1.51746914877570e+002°)
2.71320865489537e+001	(-6.21964573234989e+000dB,1.50956366288929e+002°)
2.73208051350882e+001	(-6.11609399369387e+000dB,1.50164288933550e+002°)
2.75108363627952e+001	(-6.01337648861370e+000dB,1.49370718487078e+002°)
2.77021893622188e+001	(-5.91150259839673e+000dB,1.48575692845189e+002°)
2.78948733270084e+001	(-5.81048165335464e+000dB,1.47779252139527e+002°)
2.80888975147603e+001	(-5.71032291984014e+000dB,1.46981438750210e+002°)
2.82842712474622e+001	(-5.61103558701357e+000dB,1.46182297314740e+002°)
2.84810039119418e+001	(-5.51262875338423e+000dB,1.45381874733177e+002°)
2.86791049603169e+001	(-5.41511141315186e+000dB,1.44580220169440e+002°)
2.88785839104503e+001	(-5.31849244237689e+000dB,1.43777385048608e+002°)
2.90794503464066e+001	(-5.22278058500849e+000dB,1.42973423050112e+002°)
2.92817139189129e+001	(-5.12798443880193e+000dB,1.42168390096681e+002°)
2.94853843458224e+001	(-5.03411244115776e+000dB,1.41362344338982e+002°)
2.96904714125813e+001	(-4.94117285491741e+000dB,1.40555346135835e+002°)
2.98969849726991e+001	(-4.84917375415032e+000dB,1.39747458029950e+002°)
3.01049349482217e+001	(-4.75812300996996e+000dB,1.38938744719122e+002°)
3.03143313302083e+001	(-4.66802827641622e+000dB,1.38129273022833e+002°)
3.05251841792116e+001	(-4.57889697644331e+000dB,1.37319111844247e+002°)
3.07375036257606e+001	(-4.49073628805295e+000dB,1.36508332127562e+002°)
3.09512998708482e+001	(-4.40355313061289e+000dB,1.35697006810751e+002°)
3.11665831864204e+001	(-4.31735415140192e+000dB,1.34885210773689e+002°)
3.13833639158704e+001	(-4.23214571242218e+000dB,1.34073020781718e+002°)
3.16016524745355e+001	(-4.14793387751998e+000dB,1.33260515424704e+002°)
3.18214593501972e+001	(-4.06472439985627e+000dB,1.32447775051660e+002°)
3.20427951035853e+001	(-3.98252270976714e+000dB,1.31634881701031e+002°)
3.22656703688855e+001	(-3.90133390305476e+000dB,1.30821919026750e+002°)
3.24900958542498e+001	(-3.82116272974772e+000dB,1.30008972220204e+002°)
3.27160823423117e+001	(-3.74201358336942e+000dB,1.29196127928245e+002°)
3.29436406907034e+001	(-3.66389049075134e+000dB,1.28383474167430e+002°)
3.31727818325781e+001	(-3.58679710242712e+000dB,1.27571100234659e+002°)
3.34035167771352e+001	(-3.51073668364107e+000dB,1.26759096614425e+002°)
3.36358566101490e+001	(-3.43571210600373e+000dB,1.25947554882880e+002°)
3.38698124945015e+001	(-3.36172583982413e+000dB,1.25136567608963e+002°)
3.41053956707187e+001	(-3.28877994714713e+000dB,1.24326228252828e+002°)
3.43426174575106e+001	(-3.21687607552084e+000dB,1.23516631061834e+002°)
3.45814892523151e+001	(-3.14601545251739e+000dB,1.22707870964370e+002°)
3.48220225318454e+001	(-3.07619888102674e+000dB,1.21900043461795e+002°)
3.50642288526419e+001	(-3.00742673534172e+000dB,1.21093244518790e+002°)
3.53081198516267e+001	(-2.93969895804757e+000dB,1.20287570452419e+002°)
3.55537072466633e+001	(-2.87301505772825e+000dB,1.19483117820205e+002°)
3.58010028371194e+001	(-2.80737410749714e+000dB,1.18679983307528e+002°)
3.60500185044337e+001	(-2.74277474435729e+000dB,1.17878263614677e+002°)
3.63007662126869e+001	(-2.67921516939299e+000dB,1.17078055343849e+002°)
3.65532580091765e+001	(-2.61669314879144e+000dB,1.16279454886426e+002°)
3.68075060249955e+001	(-2.55520601568915e+000dB,1.15482558310845e+002°)
3.70635224756154e+001	(-2.49475067283643e+000dB,1.14687461251366e+002°)
3.73213196614728e+001	(-2.43532359606744e+000dB,1.13894258798048e+002°)
3.75809099685610e+001	(-2.37692083856333e+000dB,1.13103045388238e+002°)
3.78423058690244e+001	(-2.31953803589003e+000dB,1.12313914699855e+002°)
3.81055199217581e+001	(-2.26317041179203e+000dB,1.11526959546763e+002°)
3.83705647730111e+001	(-2.20781278471851e+000dB,1.10742271776504e+002°)
3.86374531569944e+001	(-2.15345957505757e+000dB,1.09959942170640e+002°)
3.89061978964920e+001	(-2.10010481305004e+000dB,1.09180060347972e+002°)
3.91768119034777e+001	(-2.04774214735389e+000dB,1.08402714670848e+002°)
3.94493081797350e+001	(-1.99636485422663e+000dB,1.07627992154800e+002°)
3.97236998174820e+001	(-1.94596584729231e+000dB,1.06855978381688e+002°)
4.00000000000006e+001	(-1.89653768785766e+000dB,1.06086757416555e+002°)
4.02782220022694e+001	(-1.84807259574017e+000dB,1.05320411728362e+002°)
4.05583791916018e+001	(-1.80056246057059e+000dB,1.04557022114730e+002°)
4.08404850282884e+001	(-1.75399885353002e+000dB,1.03796667630855e+002°)
4.11245530662433e+001	(-1.70837303948221e+000dB,1.03039425522679e+002°)
4.14105969536557e+001	(-1.66367598946045e+000dB,1.02285371164430e+002°)
4.16986304336455e+001	(-1.61989839346788e+000dB,1.01534578000603e+002°)
4.19886673449234e+001	(-1.57703067355061e+000dB,1.00787117492439e+002°)
4.22807216224559e+001	(-1.53506299710260e+000dB,1.00043059068939e+002°)
4.25748072981351e+001	(-1.49398529036150e+000dB,9.93024700824439e+001°)
4.28709385014524e+001	(-1.45378725205515e+000dB,9.85654157687747e+001°)
4.31691294601778e+001	(-1.41445836715949e+000dB,9.78319592119308e+001°)
4.34693945010430e+001	(-1.37598792072863e+000dB,9.71021613133099e+001°)
4.37717480504303e+001	(-1.33836501175947e+000dB,9.63760807654109e+001°)
4.40762046350651e+001	(-1.30157856705402e+000dB,9.56537740299596e+001°)
4.43827788827145e+001	(-1.26561735504393e+000dB,9.49352953203860e+001°)
4.46914855228895e+001	(-1.23046999954313e+000dB,9.42206965885664e+001°)
4.50023393875531e+001	(-1.19612499339568e+000dB,9.35100275157353e+001°)
4.53153554118327e+001	(-1.16257071198795e+000dB,9.28033355074557e+001°)
4.56305486347377e+001	(-1.12979542659535e+000dB,9.21006656925321e+001°)
4.59479341998822e+001	(-1.09778731753607e+000dB,9.14020609257369e+001°)
4.62675273562123e+001	(-1.06653448710559e+000dB,9.07075617942143e+001°)
4.65893434587390e+001	(-1.03602497226779e+000dB,9.00172066274185e+001°)
4.69133979692759e+001	(-1.00624675708012e+000dB,8.93310315104382e+001°)
4.72397064571820e+001	(-9.77187784832461e-001dB,8.86490703005505e+001°)
4.75682846001096e+001	(-9.48835969880777e-001dB,8.79713546468470e+001°)
4.78991481847580e+001	(-9.21179209158570e-001dB,8.72979140127694e+001°)
4.82323131076312e+001	(-8.94205393351158e-001dB,8.66287757013896e+001°)
4.85677953758027e+001	(-8.67902417719609e-001dB,8.59639648832679e+001°)
4.89056111076836e+001	(-8.42258192562358e-001dB,8.53035046267219e+001°)
4.92457765337975e+001	(-8.17260653305250e-001dB,8.46474159303397e+001°)
4.95883079975603e+001	(-7.92897770211264e-001dB,8.39957177575686e+001°)
4.99332219560653e+001	(-7.69157557703944e-001dB,8.33484270732170e+001°)
5.02805349808740e+001	(-7.46028083299031e-001dB,8.27055588817026e+001°)
5.06302637588121e+001	(-7.23497476141052e-001dB,8.20671262668898e+001°)
5.09824250927714e+001	(-7.01553935142798e-001dB,8.14331404333543e+001°)
5.13370359025171e+001	(-6.80185736726743e-001dB,8.08036107489250e+001°)
5.16941132255006e+001	(-6.59381242169259e-001dB,8.01785447883496e+001°)
5.20536742176783e+001	(-6.39128904548540e-001dB,7.95579483779397e+001°)
5.24157361543355e+001	(-6.19417275300354e-001dB,7.89418256410529e+001°)
5.27803164309167e+001	(-6.00235010384200e-001dB,7.83301790442781e+001°)
5.31474325638614e+001	(-5.81570876065222e-001dB,7.77230094441886e+001°)
5.35171021914455e+001	(-5.63413754317956e-001dB,7.71203161345429e+001°)
5.38893430746286e+001	(-5.45752647857520e-001dB,7.65220968938075e+001°)
5.42641730979079e+001	(-5.28576684806185e-001dB,7.59283480328918e+001°)
5.46416102701768e+001	(-5.11875123003012e-001dB,7.53390644429841e+001°)
5.50216727255908e+001	(-4.95637353964734e-001dB,7.47542396433856e+001°)
5.54043787244380e+001	(-4.79852906507330e-001dB,7.41738658292470e+001°)
5.57897466540173e+001	(-4.64511450037078e-001dB,7.35979339191155e+001°)
5.61777950295209e+001	(-4.49602797521768e-001dB,7.30264336022070e+001°)
5.65685424949249e+001	(-4.35116908151049e-001dB,7.24593533853231e+001°)
5.69620078238839e+001	(-4.21043889697470e-001dB,7.18966806393402e+001°)
5.73582099206342e+001	(-4.07374000587818e-001dB,7.13384016452012e+001°)
5.77571678209009e+001	(-3.94097651696012e-001dB,7.07845016393462e+001°)
5.81589006928135e+001	(-3.81205407868432e-001dB,7.02349648585256e+001°)
5.85634278378261e+001	(-3.68687989192220e-001dB,6.96897745839417e+001°)
5.89707686916452e+001	(-3.56536272017821e-001dB,6.91489131846714e+001°)
5.93809428251631e+001	(-3.44741289746513e-001dB,6.86123621603261e+001°)
5.97939699453987e+001	(-3.33294233393773e-001dB,6.80801021829121e+001°)
6.02098698964438e+001	(-3.22186451939248e-001dB,6.75521131378552e+001°)
6.06286626604171e+001	(-3.11409452474116e-001dB,6.70283741641607e+001°)
6.10503683584235e+001	(-3.00954900155880e-001dB,6.65088636936829e+001°)
6.14750072515217e+001	(-2.90814617981685e-001dB,6.59935594894817e+001°)
6.19025997416968e+001	(-2.80980586389317e-001dB,6.54824386832482e+001°)
6.23331663728412e+001	(-2.71444942696638e-001dB,6.49754778117832e+001°)
6.27667278317413e+001	(-2.62199980388768e-001dB,6.44726528525184e+001°)
6.32033049490714e+001	(-2.53238148262410e-001dB,6.39739392580701e+001°)
6.36429187003948e+001	(-2.44552049436457e-001dB,6.34793119898204e+001°)
6.40855902071710e+001	(-2.36134440238312e-001dB,6.29887455505212e+001°)
6.45313407377714e+001	(-2.27978228973864e-001dB,6.25022140159225e+001°)
6.49801917085001e+001	(-2.20076474589749e-001dB,6.20196910654241e+001°)
6.54321646846238e+001	(-2.12422385236383e-001dB,6.15411500117555e+001°)
6.58872813814072e+001	(-2.05009316738784e-001dB,6.10665638296903e+001°)
6.63455636651567e+001	(-1.97830770983353e-001dB,6.05959051838002e+001°)
6.68070335542709e+001	(-1.90880394227455e-001dB,6.01291464552605e+001°)
6.72717132202985e+001	(-1.84151975338767e-001dB,5.96662597677148e+001°)
