Freq.	V(out)
1.00000000000000e+001	(-3.50422319713591e+001dB,-1.02453641990962e+002°)
1.00695555005672e+001	(-3.48606544284587e+001dB,-1.03016377949149e+002°)
1.01395947979003e+001	(-3.46795439149326e+001dB,-1.03580009544416e+002°)
1.02101212570719e+001	(-3.44989011977503e+001dB,-1.04144523591182e+002°)
1.02811382665607e+001	(-3.43187270065100e+001dB,-1.04709906900580e+002°)
1.03526492384138e+001	(-3.41390220334463e+001dB,-1.05276146286111e+002°)
1.04246576084112e+001	(-3.39597869334592e+001dB,-1.05843228569296e+002°)
1.04971668362307e+001	(-3.37810223241657e+001dB,-1.06411140585341e+002°)
1.05701804056138e+001	(-3.36027287859740e+001dB,-1.06979869188810e+002°)
1.06437018245336e+001	(-3.34249068621788e+001dB,-1.07549401259290e+002°)
1.07177346253629e+001	(-3.32475570590802e+001dB,-1.08119723707058e+002°)
1.07922823650443e+001	(-3.30706798461237e+001dB,-1.08690823478739e+002°)
1.08673486252606e+001	(-3.28942756560639e+001dB,-1.09262687562949e+002°)
1.09429370126074e+001	(-3.27183448851491e+001dB,-1.09835302995924e+002°)
1.10190511587661e+001	(-3.25428878933291e+001dB,-1.10408656867124e+002°)
1.10956947206785e+001	(-3.23679050044855e+001dB,-1.10982736324823e+002°)
1.11728713807222e+001	(-3.21933965066832e+001dB,-1.11557528581654e+002°)
1.12505848468881e+001	(-3.20193626524449e+001dB,-1.12133020920138e+002°)
1.13288388529580e+001	(-3.18458036590473e+001dB,-1.12709200698161e+002°)
1.14076371586842e+001	(-3.16727197088394e+001dB,-1.13286055354422e+002°)
1.14869835499704e+001	(-3.15001109495818e+001dB,-1.13863572413830e+002°)
1.15668818390529e+001	(-3.13279774948089e+001dB,-1.14441739492850e+002°)
1.16473358646846e+001	(-3.11563194242110e+001dB,-1.15020544304801e+002°)
1.17283494923188e+001	(-3.09851367840391e+001dB,-1.15599974665096e+002°)
1.18099266142953e+001	(-3.08144295875295e+001dB,-1.16180018496419e+002°)
1.18920711500272e+001	(-3.06441978153497e+001dB,-1.16760663833839e+002°)
1.19747870461893e+001	(-3.04744414160651e+001dB,-1.17341898829854e+002°)
1.20580782769076e+001	(-3.03051603066254e+001dB,-1.17923711759369e+002°)
1.21419488439505e+001	(-3.01363543728711e+001dB,-1.18506091024588e+002°)
1.22264027769207e+001	(-2.99680234700600e+001dB,-1.19089025159840e+002°)
1.23114441334492e+001	(-2.98001674234130e+001dB,-1.19672502836307e+002°)
1.23970769993899e+001	(-2.96327860286785e+001dB,-1.20256512866683e+002°)
1.24833054890161e+001	(-2.94658790527161e+001dB,-1.20841044209727e+002°)
1.25701337452183e+001	(-2.92994462340981e+001dB,-1.21426085974736e+002°)
1.26575659397028e+001	(-2.91334872837295e+001dB,-1.22011627425916e+002°)
1.27456062731927e+001	(-2.89680018854855e+001dB,-1.22597657986654e+002°)
1.28342589756291e+001	(-2.88029896968658e+001dB,-1.23184167243694e+002°)
1.29235283063750e+001	(-2.86384503496660e+001dB,-1.23771144951194e+002°)
1.30134185544194e+001	(-2.84743834506657e+001dB,-1.24358581034696e+002°)
1.31039340385837e+001	(-2.83107885823322e+001dB,-1.24946465594965e+002°)
1.31950791077290e+001	(-2.81476653035397e+001dB,-1.25534788911729e+002°)
1.32868581409652e+001	(-2.79850131503037e+001dB,-1.26123541447295e+002°)
1.33792755478612e+001	(-2.78228316365304e+001dB,-1.26712713850052e+002°)
1.34723357686569e+001	(-2.76611202547797e+001dB,-1.27302296957849e+002°)
1.35660432744768e+001	(-2.74998784770423e+001dB,-1.27892281801253e+002°)
1.36604025675440e+001	(-2.73391057555301e+001dB,-1.28482659606682e+002°)
1.37554181813975e+001	(-2.71788015234790e+001dB,-1.29073421799405e+002°)
1.38510946811093e+001	(-2.70189651959644e+001dB,-1.29664560006424e+002°)
1.39474366635041e+001	(-2.68595961707282e+001dB,-1.30256066059211e+002°)
1.40444487573800e+001	(-2.67006938290174e+001dB,-1.30847931996326e+002°)
1.41421356237310e+001	(-2.65422575364333e+001dB,-1.31440150065884e+002°)
1.42405019559708e+001	(-2.63842866437909e+001dB,-1.32032712727904e+002°)
1.43395524801583e+001	(-2.62267804879884e+001dB,-1.32625612656505e+002°)
1.44392919552250e+001	(-2.60697383928859e+001dB,-1.33218842741969e+002°)
1.45397251732032e+001	(-2.59131596701927e+001dB,-1.33812396092662e+002°)
1.46408569594563e+001	(-2.57570436203629e+001dB,-1.34406266036818e+002°)
1.47426921729111e+001	(-2.56013895334992e+001dB,-1.35000446124167e+002°)
1.48452357062905e+001	(-2.54461966902633e+001dB,-1.35594930127434e+002°)
1.49484924863494e+001	(-2.52914643627934e+001dB,-1.36189712043680e+002°)
1.50524674741107e+001	(-2.51371918156281e+001dB,-1.36784786095506e+002°)
1.51571656651040e+001	(-2.49833783066357e+001dB,-1.37380146732104e+002°)
1.52625920896057e+001	(-2.48300230879486e+001dB,-1.37975788630163e+002°)
1.53687518128802e+001	(-2.46771254069026e+001dB,-1.38571706694622e+002°)
1.54756499354240e+001	(-2.45246845069808e+001dB,-1.39167896059283e+002°)
1.55832915932101e+001	(-2.43726996287603e+001dB,-1.39764352087264e+002°)
1.56916819579351e+001	(-2.42211700108628e+001dB,-1.40361070371306e+002°)
1.58008262372676e+001	(-2.40700948909073e+001dB,-1.40958046733933e+002°)
1.59107296750984e+001	(-2.39194735064657e+001dB,-1.41555277227454e+002°)
1.60213975517925e+001	(-2.37693050960196e+001dB,-1.42152758133821e+002°)
1.61328351844426e+001	(-2.36195888999178e+001dB,-1.42750485964327e+002°)
1.62450479271248e+001	(-2.34703241613360e+001dB,-1.43348457459162e+002°)
1.63580411711557e+001	(-2.33215101272350e+001dB,-1.43946669586808e+002°)
1.64718203453515e+001	(-2.31731460493197e+001dB,-1.44545119543293e+002°)
1.65863909162889e+001	(-2.30252311849972e+001dB,-1.45143804751282e+002°)
1.67017583885675e+001	(-2.28777647983332e+001dB,-1.45742722859020e+002°)
1.68179283050744e+001	(-2.27307461610074e+001dB,-1.46341871739134e+002°)
1.69349062472506e+001	(-2.25841745532661e+001dB,-1.46941249487262e+002°)
1.70526978353592e+001	(-2.24380492648725e+001dB,-1.47540854420553e+002°)
1.71713087287552e+001	(-2.22923695960537e+001dB,-1.48140685076004e+002°)
1.72907446261574e+001	(-2.21471348584449e+001dB,-1.48740740208644e+002°)
1.74110112659226e+001	(-2.20023443760279e+001dB,-1.49341018789578e+002°)
1.75321144263208e+001	(-2.18579974860671e+001dB,-1.49941520003874e+002°)
1.76540599258132e+001	(-2.17140935400395e+001dB,-1.50542243248298e+002°)
1.77768536233315e+001	(-2.15706319045590e+001dB,-1.51143188128907e+002°)
1.79005014185596e+001	(-2.14276119622960e+001dB,-1.51744354458488e+002°)
1.80250092522167e+001	(-2.12850331128899e+001dB,-1.52345742253851e+002°)
1.81503831063433e+001	(-2.11428947738550e+001dB,-1.52947351732972e+002°)
1.82766290045881e+001	(-2.10011963814797e+001dB,-1.53549183311989e+002°)
1.84037530124976e+001	(-2.08599373917177e+001dB,-1.54151237602055e+002°)
1.85317612378075e+001	(-2.07191172810711e+001dB,-1.54753515406040e+002°)
1.86606598307363e+001	(-2.05787355474655e+001dB,-1.55356017715087e+002°)
1.87904549842804e+001	(-2.04387917111161e+001dB,-1.55958745705031e+002°)
1.89211529345120e+001	(-2.02992853153839e+001dB,-1.56561700732659e+002°)
1.90527599608789e+001	(-2.01602159276230e+001dB,-1.57164884331843e+002°)
1.91852823865054e+001	(-2.00215831400171e+001dB,-1.57768298209514e+002°)
1.93187265784970e+001	(-1.98833865704055e+001dB,-1.58371944241508e+002°)
1.94530989482458e+001	(-1.97456258630986e+001dB,-1.58975824468258e+002°)
1.95884059517387e+001	(-1.96083006896804e+001dB,-1.59579941090352e+002°)
1.97246540898673e+001	(-1.94714107498009e+001dB,-1.60184296463947e+002°)
1.98618499087409e+001	(-1.93349557719550e+001dB,-1.60788893096048e+002°)
2.00000000000001e+001	(-1.91989355142485e+001dB,-1.61393733639643e+002°)
2.01391110011345e+001	(-1.90633497651513e+001dB,-1.61998820888702e+002°)
2.02791895958007e+001	(-1.89281983442367e+001dB,-1.62604157773041e+002°)
2.04202425141440e+001	(-1.87934811029064e+001dB,-1.63209747353046e+002°)
2.05622765331215e+001	(-1.86591979251004e+001dB,-1.63815592814261e+002°)
2.07052984768277e+001	(-1.85253487279930e+001dB,-1.64421697461848e+002°)
2.08493152168226e+001	(-1.83919334626719e+001dB,-1.65028064714906e+002°)
2.09943336724615e+001	(-1.82589521148017e+001dB,-1.65634698100660e+002°)
2.11403608112278e+001	(-1.81264047052711e+001dB,-1.66241601248519e+002°)
2.12874036490674e+001	(-1.79942912908226e+001dB,-1.66848777884004e+002°)
2.14354692507260e+001	(-1.78626119646652e+001dB,-1.67456231822544e+002°)
2.15845647300887e+001	(-1.77313668570679e+001dB,-1.68063966963143e+002°)
2.17346972505213e+001	(-1.76005561359365e+001dB,-1.68671987281927e+002°)
2.18858740252150e+001	(-1.74701800073693e+001dB,-1.69280296825553e+002°)
2.20381023175324e+001	(-1.73402387161948e+001dB,-1.69888899704505e+002°)
2.21913894413571e+001	(-1.72107325464882e+001dB,-1.70497800086262e+002°)
2.23457427614446e+001	(-1.70816618220680e+001dB,-1.71107002188339e+002°)
2.25011696937764e+001	(-1.69530269069707e+001dB,-1.71716510271217e+002°)
2.26576777059162e+001	(-1.68248282059045e+001dB,-1.72326328631147e+002°)
2.28152743173687e+001	(-1.66970661646796e+001dB,-1.72936461592842e+002°)
2.29739670999409e+001	(-1.65697412706169e+001dB,-1.73546913502048e+002°)
2.31337636781060e+001	(-1.64428540529322e+001dB,-1.74157688718005e+002°)
2.32946717293693e+001	(-1.63164050830967e+001dB,-1.74768791605801e+002°)
2.34566989846378e+001	(-1.61903949751729e+001dB,-1.75380226528602e+002°)
2.36198532285908e+001	(-1.60648243861253e+001dB,-1.75991997839790e+002°)
2.37841423000546e+001	(-1.59396940161048e+001dB,-1.76604109874989e+002°)
2.39495740923788e+001	(-1.58150046087071e+001dB,-1.77216566943987e+002°)
2.41161565538154e+001	(-1.56907569512041e+001dB,-1.77829373322559e+002°)
2.42838976879012e+001	(-1.55669518747466e+001dB,-1.78442533244193e+002°)
2.44528055538416e+001	(-1.54435902545399e+001dB,-1.79056050891723e+002°)
2.46228882668986e+001	(-1.53206730099895e+001dB,-1.79669930388862e+002°)
2.47941539987800e+001	(-1.51982011048173e+001dB,1.79715824208342e+002°)
2.49666109780325e+001	(-1.50761755471481e+001dB,1.79101208920146e+002°)
2.51402674904368e+001	(-1.49545973895641e+001dB,1.78486219851830e+002°)
2.53151318794059e+001	(-1.48334677291286e+001dB,1.77870853202492e+002°)
2.54912125463855e+001	(-1.47127877073769e+001dB,1.77255105273922e+002°)
2.56685179512583e+001	(-1.45925585102746e+001dB,1.76638972479544e+002°)
2.58470566127501e+001	(-1.44727813681424e+001dB,1.76022451353426e+002°)
2.60268371088389e+001	(-1.43534575555458e+001dB,1.75405538559352e+002°)
2.62078680771675e+001	(-1.42345883911508e+001dB,1.74788230899951e+002°)
2.63901582154582e+001	(-1.41161752375436e+001dB,1.74170525325884e+002°)
2.65737162819305e+001	(-1.39982195010142e+001dB,1.73552418945073e+002°)
2.67585510957225e+001	(-1.38807226313027e+001dB,1.72933909031975e+002°)
2.69446715373141e+001	(-1.37636861213084e+001dB,1.72314993036897e+002°)
2.71320865489537e+001	(-1.36471115067612e+001dB,1.71695668595337e+002°)
2.73208051350882e+001	(-1.35310003658528e+001dB,1.71075933537359e+002°)
2.75108363627952e+001	(-1.34153543188303e+001dB,1.70455785896977e+002°)
2.77021893622188e+001	(-1.33001750275481e+001dB,1.69835223921565e+002°)
2.78948733270084e+001	(-1.31854641949806e+001dB,1.69214246081264e+002°)
2.80888975147603e+001	(-1.30712235646927e+001dB,1.68592851078392e+002°)
2.82842712474622e+001	(-1.29574549202695e+001dB,1.67971037856850e+002°)
2.84810039119418e+001	(-1.28441600847027e+001dB,1.67348805611511e+002°)
2.86791049603169e+001	(-1.27313409197358e+001dB,1.66726153797584e+002°)
2.88785839104503e+001	(-1.26189993251641e+001dB,1.66103082139953e+002°)
2.90794503464066e+001	(-1.25071372380931e+001dB,1.65479590642473e+002°)
2.92817139189129e+001	(-1.23957566321515e+001dB,1.64855679597225e+002°)
2.94853843458224e+001	(-1.22848595166600e+001dB,1.64231349593708e+002°)
2.96904714125813e+001	(-1.21744479357554e+001dB,1.63606601527973e+002°)
2.98969849726991e+001	(-1.20645239674703e+001dB,1.62981436611681e+002°)
3.01049349482217e+001	(-1.19550897227655e+001dB,1.62355856381074e+002°)
3.03143313302083e+001	(-1.18461473445189e+001dB,1.61729862705863e+002°)
3.05251841792116e+001	(-1.17376990064675e+001dB,1.61103457798002e+002°)
3.07375036257606e+001	(-1.16297469121032e+001dB,1.60476644220357e+002°)
3.09512998708482e+001	(-1.15222932935231e+001dB,1.59849424895249e+002°)
3.11665831864204e+001	(-1.14153404102338e+001dB,1.59221803112858e+002°)
3.13833639158704e+001	(-1.13088905479091e+001dB,1.58593782539496e+002°)
3.16016524745355e+001	(-1.12029460171019e+001dB,1.57965367225705e+002°)
3.18214593501972e+001	(-1.10975091519106e+001dB,1.57336561614209e+002°)
3.20427951035853e+001	(-1.09925823085993e+001dB,1.56707370547665e+002°)
3.22656703688855e+001	(-1.08881678641728e+001dB,1.56077799276247e+002°)
3.24900958542498e+001	(-1.07842682149068e+001dB,1.55447853465009e+002°)
3.27160823423117e+001	(-1.06808857748329e+001dB,1.54817539201049e+002°)
3.29436406907034e+001	(-1.05780229741798e+001dB,1.54186863000436e+002°)
3.31727818325781e+001	(-1.04756822577707e+001dB,1.53555831814911e+002°)
3.34035167771352e+001	(-1.03738660833778e+001dB,1.52924453038327e+002°)
3.36358566101490e+001	(-1.02725769200341e+001dB,1.52292734512839e+002°)
3.38698124945015e+001	(-1.01718172463042e+001dB,1.51660684534812e+002°)
3.41053956707187e+001	(-1.00715895485140e+001dB,1.51028311860445e+002°)
3.43426174575106e+001	(-9.97189631894086e+000dB,1.50395625711104e+002°)
3.45814892523151e+001	(-9.87274005396487e+000dB,1.49762635778332e+002°)
3.48220225318454e+001	(-9.77412325218292e+000dB,1.49129352228553e+002°)
3.50642288526419e+001	(-9.67604841248607e+000dB,1.48495785707425e+002°)
3.53081198516267e+001	(-9.57851803210196e+000dB,1.47861947343866e+002°)
3.55537072466633e+001	(-9.48153460460349e+000dB,1.47227848753708e+002°)
3.58010028371194e+001	(-9.38510061788554e+000dB,1.46593502042989e+002°)
3.60500185044337e+001	(-9.28921855211069e+000dB,1.45958919810867e+002°)
3.63007662126869e+001	(-9.19389087762615e+000dB,1.45324115152141e+002°)
3.65532580091765e+001	(-9.09912005285361e+000dB,1.44689101659369e+002°)
3.68075060249955e+001	(-9.00490852215325e+000dB,1.44053893424580e+002°)
3.70635224756154e+001	(-8.91125871366481e+000dB,1.43418505040560e+002°)
3.73213196614728e+001	(-8.81817303712667e+000dB,1.42782951601712e+002°)
3.75809099685610e+001	(-8.72565388167604e+000dB,1.42147248704468e+002°)
3.78423058690244e+001	(-8.63370361363147e+000dB,1.41511412447264e+002°)
3.81055199217581e+001	(-8.54232457426080e+000dB,1.40875459430047e+002°)
3.83705647730111e+001	(-8.45151907753628e+000dB,1.40239406753322e+002°)
3.86374531569944e+001	(-8.36128940787964e+000dB,1.39603272016733e+002°)
3.89061978964920e+001	(-8.27163781789924e+000dB,1.38967073317154e+002°)
3.91768119034777e+001	(-8.18256652612236e+000dB,1.38330829246308e+002°)
3.94493081797350e+001	(-8.09407771472480e+000dB,1.37694558887887e+002°)
3.97236998174820e+001	(-8.00617352726046e+000dB,1.37058281814185e+002°)
4.00000000000006e+001	(-7.91885606639429e+000dB,1.36422018082231e+002°)
4.02782220022694e+001	(-7.83212739164037e+000dB,1.35785788229417e+002°)
4.05583791916018e+001	(-7.74598951710909e+000dB,1.35149613268630e+002°)
4.08404850282884e+001	(-7.66044440926526e+000dB,1.34513514682873e+002°)
4.11245530662433e+001	(-7.57549398470095e+000dB,1.33877514419384e+002°)
4.14105969536557e+001	(-7.49114010792540e+000dB,1.33241634883248e+002°)
4.16986304336455e+001	(-7.40738458917541e+000dB,1.32605898930501e+002°)
4.19886673449234e+001	(-7.32422918224893e+000dB,1.31970329860739e+002°)
4.22807216224559e+001	(-7.24167558236493e+000dB,1.31334951409215e+002°)
4.25748072981351e+001	(-7.15972542405275e+000dB,1.30699787738453e+002°)
4.28709385014524e+001	(-7.07838027907378e+000dB,1.30064863429354e+002°)
4.31691294601778e+001	(-6.99764165437837e+000dB,1.29430203471830e+002°)
4.34693945010430e+001	(-6.91751099010144e+000dB,1.28795833254943e+002°)
4.37717480504303e+001	(-6.83798965759917e+000dB,1.28161778556582e+002°)
4.40762046350651e+001	(-6.75907895753018e+000dB,1.27528065532670e+002°)
4.43827788827145e+001	(-6.68078011798399e+000dB,1.26894720705908e+002°)
4.46914855228895e+001	(-6.60309429265939e+000dB,1.26261770954085e+002°)
4.50023393875531e+001	(-6.52602255909601e+000dB,1.25629243497941e+002°)
4.53153554118327e+001	(-6.44956591696155e+000dB,1.24997165888613e+002°)
4.56305486347377e+001	(-6.37372528639715e+000dB,1.24365565994664e+002°)
4.59479341998822e+001	(-6.29850150642424e+000dB,1.23734471988720e+002°)
4.62675273562123e+001	(-6.22389533341460e+000dB,1.23103912333719e+002°)
4.65893434587390e+001	(-6.14990743962658e+000dB,1.22473915768792e+002°)
4.69133979692759e+001	(-6.07653841180986e+000dB,1.21844511294796e+002°)
4.72397064571820e+001	(-6.00378874988060e+000dB,1.21215728159501e+002°)
4.75682846001096e+001	(-5.93165886566963e+000dB,1.20587595842475e+002°)
4.78991481847580e+001	(-5.86014908174549e+000dB,1.19960144039647e+002°)
4.82323131076312e+001	(-5.78925963031398e+000dB,1.19333402647614e+002°)
4.85677953758027e+001	(-5.71899065219675e+000dB,1.18707401747662e+002°)
4.89056111076836e+001	(-5.64934219588962e+000dB,1.18082171589561e+002°)
4.92457765337975e+001	(-5.58031421670316e+000dB,1.17457742575133e+002°)
4.95883079975603e+001	(-5.51190657598597e+000dB,1.16834145241620e+002°)
4.99332219560653e+001	(-5.44411904043272e+000dB,1.16211410244874e+002°)
5.02805349808740e+001	(-5.37695128147750e+000dB,1.15589568342388e+002°)
5.06302637588121e+001	(-5.31040287477369e+000dB,1.14968650376193e+002°)
5.09824250927714e+001	(-5.24447329976101e+000dB,1.14348687255649e+002°)
5.13370359025171e+001	(-5.17916193932049e+000dB,1.13729709940134e+002°)
5.16941132255006e+001	(-5.11446807951783e+000dB,1.13111749421678e+002°)
5.20536742176783e+001	(-5.05039090943521e+000dB,1.12494836707551e+002°)
5.24157361543355e+001	(-4.98692952109223e+000dB,1.11879002802822e+002°)
5.27803164309167e+001	(-4.92408290945544e+000dB,1.11264278692936e+002°)
5.31474325638614e+001	(-4.86184997253646e+000dB,1.10650695326306e+002°)
5.35171021914455e+001	(-4.80022951157874e+000dB,1.10038283596954e+002°)
5.38893430746286e+001	(-4.73922023133171e+000dB,1.09427074327235e+002°)
5.42641730979079e+001	(-4.67882074041249e+000dB,1.08817098250638e+002°)
5.46416102701768e+001	(-4.61902955175377e+000dB,1.08208385994722e+002°)
5.50216727255908e+001	(-4.55984508313711e+000dB,1.07600968064181e+002°)
5.54043787244380e+001	(-4.50126565781074e+000dB,1.06994874824071e+002°)
5.57897466540173e+001	(-4.44328950519014e+000dB,1.06390136483219e+002°)
5.61777950295209e+001	(-4.38591476164062e+000dB,1.05786783077842e+002°)
5.65685424949249e+001	(-4.32913947133980e+000dB,1.05184844455379e+002°)
5.69620078238839e+001	(-4.27296158721863e+000dB,1.04584350258574e+002°)
5.73582099206342e+001	(-4.21737897197919e+000dB,1.03985329909820e+002°)
5.77571678209009e+001	(-4.16238939918708e+000dB,1.03387812595780e+002°)
5.81589006928135e+001	(-4.10799055443667e+000dB,1.02791827252314e+002°)
5.85634278378261e+001	(-4.05418003658690e+000dB,1.02197402549717e+002°)
5.89707686916452e+001	(-4.00095535906531e+000dB,1.01604566878292e+002°)
5.93809428251631e+001	(-3.94831395123816e+000dB,1.01013348334268e+002°)
5.97939699453987e+001	(-3.89625315984416e+000dB,1.00423774706086e+002°)
6.02098698964438e+001	(-3.84477025048885e+000dB,9.98358734610629e+001°)
6.06286626604171e+001	(-3.79386240919781e+000dB,9.92496717324360e+001°)
6.10503683584235e+001	(-3.74352674402535e+000dB,9.86651963068228e+001°)
6.14750072515217e+001	(-3.69376028671618e+000dB,9.80824736120872e+001°)
6.19025997416968e+001	(-3.64455999441747e+000dB,9.75015297056322e+001°)
6.23331663728412e+001	(-3.59592275143798e+000dB,9.69223902631274e+001°)
6.27667278317413e+001	(-3.54784537105186e+000dB,9.63450805676792e+001°)
6.32033049490714e+001	(-3.50032459734400e+000dB,9.57696254994513e+001°)
6.36429187003948e+001	(-3.45335710709395e+000dB,9.51960495257430e+001°)
6.40855902071710e+001	(-3.40693951169542e+000dB,9.46243766915312e+001°)
6.45313407377714e+001	(-3.36106835910864e+000dB,9.40546306104807e+001°)
6.49801917085001e+001	(-3.31574013584235e+000dB,9.34868344564265e+001°)
6.54321646846238e+001	(-3.27095126896243e+000dB,9.29210109553332e+001°)
6.58872813814072e+001	(-3.22669812812463e+000dB,9.23571823777313e+001°)
6.63455636651567e+001	(-3.18297702762774e+000dB,9.17953705316328e+001°)
6.68070335542709e+001	(-3.13978422848502e+000dB,9.12355967559286e+001°)
